Circuit: * C:\Users\Geovanne\Documents\LTspice\Draft3.asc

Model "n4007": Oxide thickness thinner than recommended for a level 1 MOSFET.
Instance "m1": Length shorter than recommended for a level 1 MOSFET.
Direct Newton iteration for .op point succeeded.
Semiconductor Device Operating Points:
                        --- MOSFET Transistors ---
Name:          m1
Model:        n4007
Id:          2.12e-03
Vgs:         3.88e+00
Vds:         6.64e+00
Vbs:         0.00e+00
Vth:         1.77e+00
Vdsat:       2.11e+00
Gm:          2.01e-03
Gds:         2.89e-05
Gmb:         5.12e-03
Cbd:         6.81e-12
Cbs:         2.00e-14
Cgsov:       0.00e+00
Cgdov:       1.76e-11
Cgbov:       0.00e+00
Cgs:         1.82e-11
Cgd:         0.00e+00
Cgb:         0.00e+00



Date: Mon Sep 25 21:02:51 2023
Total elapsed time: 0.128 seconds.

tnom = 27
temp = 27
method = trap
totiter = 5
traniter = 0
tranpoints = 0
accept = 0
rejected = 0
matrix size = 5
fillins = 0
solver = Normal
Avg thread counts: 8.0/0.0/8.0/8.0
Matrix Compiler1: 266 bytes object code size
Matrix Compiler2: 389 bytes object code size
