Circuit: * C:\Users\Geovanne\Documents\Git\UFSC\Eletronica Aplicada\Pre10.asc

Direct Newton iteration failed to find .op point.  (Use ".option noopiter" to skip.)
Starting Gmin stepping
Gmin = 10
Gmin = 1.07374
vernier = 0.5
vernier = 0.25
vernier = 0.125
vernier = 0.0625
Gmin = 1.08884
vernier = 0.03125
vernier = 0.015625
Gmin = 1.03122
vernier = 0.0078125
vernier = 0.00390625
Gmin = 1.01823
vernier = 0.00520833
vernier = 0.00260417
Gmin = 1.01162
vernier = 0.00347222
vernier = 0.00173611
vernier = 0.000868055
Gmin = 1.00899
vernier = 0.00115741
vernier = 0.000578703
Gmin = 1.0071
vernier = 0.000771604
vernier = 0.000578703
Gmin = 1.00579
vernier = 0.000771604
vernier = 0.000578703
vernier = 0.000434027
Gmin = 1.00499
vernier = 0.000578703
vernier = 0.000434027
Gmin = 0
Gmin stepping failed

Starting source stepping with srcstepmethod=0
Source Step = 3.0303%
Source Step = 33.3333%
Source Step = 63.6364%
Source Step = 93.9394%
Source Step = 96.0227%
Source Step = 97.9167%
Source Step = 99.8106%
Source stepping succeeded in finding the operating point.

Semiconductor Device Operating Points:
                        --- Diodes ---
Name:    d:u1:1      d:u1:2      d:u1:5      d:u1:6      d:u1:4
Model:    u1:dx       u1:dx       u1:dx       u1:dx       u1:dx
Id:     -1.80e-11   -2.77e-12    1.25e-03    1.60e-06   -7.92e-14
Vd:     -1.80e+01   -2.77e+00    7.20e-01    5.48e-01   -7.83e-02
Req:     1.00e+12    1.00e+12    2.07e+01    1.61e+04    9.98e+11
CAP:     0.00e+00    0.00e+00    0.00e+00    0.00e+00    0.00e+00

Name:    d:u1:3      d:u2:1      d:u2:2      d:u2:5      d:u2:6
Model:    u1:dx       u2:dx       u2:dx       u2:dx       u2:dx
Id:     -2.83e-13   -6.32e-12   -1.44e-11    1.09e-05    4.11e-04
Vd:     -2.82e-01   -6.32e+00   -1.44e+01    5.98e-01    6.92e-01
Req:     1.00e+12    1.00e+12    1.00e+12    2.37e+03    6.30e+01
CAP:     0.00e+00    0.00e+00    0.00e+00    0.00e+00    0.00e+00

Name:    d:u2:4      d:u2:3
Model:    u2:dx       u2:dx
Id:     -2.33e-13   -1.29e-13
Vd:     -2.32e-01   -1.28e-01
Req:     1.00e+12    1.00e+12
CAP:     0.00e+00    0.00e+00

                        --- Bipolar Transistors ---
Name:     q:u1:1      q:u1:2      q:u2:1      q:u2:2
Model:     u1:qx       u1:qx       u2:qx       u2:qx
Ib:       7.99e-08    7.98e-08    7.98e-08    7.99e-08
Ic:       5.00e-05    4.99e-05    4.99e-05    4.99e-05
Vbe:      6.97e-01    6.97e-01    6.97e-01    6.97e-01
Vbc:     -1.20e+01   -1.20e+01   -1.20e+01   -1.20e+01
Vce:      1.27e+01    1.27e+01    1.27e+01    1.27e+01
BetaDC:   6.25e+02    6.25e+02    6.25e+02    6.25e+02
Gm:       1.93e-03    1.93e-03    1.93e-03    1.93e-03
Rpi:      3.24e+05    3.24e+05    3.24e+05    3.24e+05
Rx:       0.00e+00    0.00e+00    0.00e+00    0.00e+00
Ro:       0.00e+00    0.00e+00    0.00e+00    0.00e+00
Cbe:      0.00e+00    0.00e+00    0.00e+00    0.00e+00
Cbc:      0.00e+00    0.00e+00    0.00e+00    0.00e+00
Cjs:      0.00e+00    0.00e+00    0.00e+00    0.00e+00
BetaAC:   6.25e+02    6.25e+02    6.25e+02    6.25e+02
Cbx:      0.00e+00    0.00e+00    0.00e+00    0.00e+00
Ft:       0.00e+00    0.00e+00    0.00e+00    0.00e+00



Date: Mon Oct 30 20:11:59 2023
Total elapsed time: 1.118 seconds.

tnom = 27
temp = 27
method = trap
totiter = 7088
traniter = 0
tranpoints = 0
accept = 0
rejected = 0
matrix size = 78
fillins = 149
solver = Normal
Avg thread counts: 1.4/0.0/8.0/1.4
Matrix Compiler1: 12.20 KB object code size
Matrix Compiler2: 8.71 KB object code size  2.6/3.2/[0.9]

